
T34E4 000:385 SEGGER J-Link V5.10h Log File (0001ms, 0288ms total)
T34E4 000:385 DLL Compiled: Jan 21 2016 19:24:29 (0001ms, 0288ms total)
T34E4 000:385 Logging started @ 2021-01-31 22:26 (0001ms, 0288ms total)
T34E4 000:386 JLINK_SetWarnOutHandler(...) (0000ms, 0288ms total)
T34E4 000:386 JLINK_OpenEx(...)
Firmware: J-Link OB-STM32F072-CortexAR compiled May  4 2017 14:43:40
Hardware: V1.00  returns O.K. (0287ms, 0575ms total)
T34E4 000:673 JLINK_SetErrorOutHandler(...) (0001ms, 0576ms total)
T34E4 000:674 JLINK_ExecCommand("ProjectFile = "E:\WHU_RO\代码区\7.2 2021TR标定\2021TR标定\TR一代车\Project\PRO\JLinkSettings.ini"", ...)  returns 0x00 (0003ms, 0579ms total)
T34E4 000:688 JLINK_ExecCommand("Device = STM32F405RG", ...)Device "STM32F405RG" selected.  returns 0x00 (0009ms, 0588ms total)
T34E4 000:697 JLINK_ExecCommand("DisableConnectionTimeout", ...)  returns 0x01 (0000ms, 0588ms total)
T34E4 000:697 JLINK_GetHardwareVersion()  returns 0x2710 (0000ms, 0588ms total)
T34E4 000:697 JLINK_GetDLLVersion()  returns 51008 (0000ms, 0588ms total)
T34E4 000:697 JLINK_GetFirmwareString(...) (0000ms, 0588ms total)
T34E4 000:781 JLINK_GetDLLVersion()  returns 51008 (0001ms, 0589ms total)
T34E4 000:782 JLINK_GetCompileDateTime() (0000ms, 0589ms total)
T34E4 000:807 JLINK_GetFirmwareString(...) (0000ms, 0589ms total)
T34E4 000:824 JLINK_GetHardwareVersion()  returns 0x2710 (0000ms, 0589ms total)
T34E4 000:846 JLINK_TIF_Select(JLINKARM_TIF_SWD)  returns 0x00 (0001ms, 0590ms total)
T34E4 000:847 JLINK_SetSpeed(5000) (0001ms, 0591ms total)
T34E4 000:848 JLINK_GetId() >0x108 TIF>Found SWD-DP with ID 0x2BA01477 >0x0D TIF> >0x28 TIF> >0x0D TIF> >0x28 TIF> >0x0D TIF> >0x28 TIF> >0x0D TIF> >0x28 TIF> >0x0D TIF> >0x21 TIF> >0x0D TIF> >0x28 TIF> >0x0D TIF> >0x28 TIF> >0x0D TIF> >0x28 TIF> >0x0D TIF> >0x21 TIF> >0x0D TIF> >0x21 TIF> >0x0D TIF> >0x28 TIF> >0x0D TIF> >0x21 TIF> >0x0D TIF> >0x21 TIF> >0x0D TIF> >0x28 TIF> >0x0D TIF> >0x21 TIF> >0x0D TIF> >0x21 TIF> >0x0D TIF> >0x28 TIF> >0x0D TIF> >0x21 TIF> >0x0D TIF> >0x21 TIF> >0x0D TIF>
 >0x28 TIF> >0x0D TIF> >0x21 TIF> >0x0D TIF> >0x21 TIF> >0x108 TIF>Found SWD-DP with ID 0x2BA01477 >0x0D TIF> >0x28 TIF> >0x0D TIF> >0x28 TIF> >0x0D TIF> >0x28 TIF> >0x0D TIF> >0x28 TIF> >0x0D TIF> >0x21 TIF> >0x0D TIF> >0x28 TIF> >0x0D TIF> >0x28 TIF> >0x0D TIF> >0x21 TIF> >0x0D TIF> >0x21 TIF> >0x0D TIF> >0x21 TIF> >0x0D TIF> >0x28 TIF> >0x0D TIF> >0x28 TIF> >0x0D TIF> >0x28 TIF> >0x0D TIF> >0x21 TIF> >0x0D TIF> >0x21 TIF> >0x0D TIF> >0x28 TIF> >0x0D TIF> >0x21 TIF> >0x0D TIF> >0x21 TIF>
Found Cortex-M4 r0p1, Little endian. >0x1A0 TIF> >0x1A0 TIF>FPUnit: 6 code (BP) slots and 2 literal slots >0x1A0 TIF> >0x1A0 TIF> >0x1A2 TIF> >0x1A0 TIF> >0x1A2 TIF> >0x1A0 TIF> >0x1A2 TIF>CoreSight components:ROMTbl 0 @ E00FF000 >0x239 TIF> >0x239 TIF> >0x239 TIF>ROMTbl 0 [0]: FFF0F000, CID: B105E00D, PID: 000BB00C SCS >0x239 TIF> >0x239 TIF>ROMTbl 0 [1]: FFF02000, CID: B105E00D, PID: 003BB002 DWT >0x239 TIF> >0x239 TIF>ROMTbl 0 [2]: FFF03000, CID: B105E00D, PID: 002BB003 FPB >0x239 TIF> >0x239 TIF>
ROMTbl 0 [3]: FFF01000, CID: B105E00D, PID: 003BB001 ITM >0x239 TIF> >0x239 TIF> >0x239 TIF>ROMTbl 0 [4]: FFF41000, CID: B105900D, PID: 000BB9A1 TPIU >0x239 TIF> >0x239 TIF>ROMTbl 0 [5]: FFF42000, CID: B105900D, PID: 000BB925 ETM >0x0D TIF> >0x21 TIF>  returns 0x2BA01477 (2102ms, 2693ms total)
T34E4 002:950 JLINK_GetDLLVersion()  returns 51008 (0000ms, 2693ms total)
T34E4 002:951 JLINK_CORE_GetFound()  returns 0xE0000FF (0000ms, 2693ms total)
T34E4 002:951 JLINK_GetDebugInfo(0x100) -- Value=0xE00FF000  returns 0x00 (0000ms, 2693ms total)
T34E4 002:963 JLINK_GetDebugInfo(0x100) -- Value=0xE00FF000  returns 0x00 (0000ms, 2693ms total)
T34E4 002:963 JLINK_GetDebugInfo(0x101) -- Value=0xE0041000  returns 0x00 (0000ms, 2693ms total)
T34E4 002:963 JLINK_GetDebugInfo(0x102) -- Value=0x00000000  returns 0x00 (0000ms, 2693ms total)
T34E4 002:963 JLINK_GetDebugInfo(0x103) -- Value=0xE0040000  returns 0x00 (0000ms, 2693ms total)
T34E4 002:963 JLINK_GetDebugInfo(0x104) -- Value=0xE0000000  returns 0x00 (0001ms, 2694ms total)
T34E4 002:964 JLINK_GetDebugInfo(0x105) -- Value=0xE0001000  returns 0x00 (0000ms, 2694ms total)
T34E4 002:964 JLINK_GetDebugInfo(0x106) -- Value=0xE0002000  returns 0x00 (0000ms, 2694ms total)
T34E4 002:964 JLINK_GetDebugInfo(0x107) -- Value=0xE000E000  returns 0x00 (0000ms, 2694ms total)
T34E4 002:964 JLINK_GetDebugInfo(0x10C) -- Value=0xE000EDF0  returns 0x00 (0000ms, 2694ms total)
T34E4 002:964 JLINK_ReadMemU32(0xE000EF40, 0x0001 Items, ...) -- CPU is running >0x1A0 TIF> - Data: 21 00 11 10  returns 0x01 (0001ms, 2695ms total)
T34E4 002:965 JLINK_ReadMemU32(0xE000EF44, 0x0001 Items, ...) -- CPU is running >0x1A0 TIF> - Data: 11 00 00 11  returns 0x01 (0001ms, 2696ms total)
T34E4 002:966 JLINK_ReadMemU32(0xE000ED00, 0x0001 Items, ...) -- CPU is running >0x1A0 TIF> - Data: 41 C2 0F 41  returns 0x01 (0001ms, 2697ms total)
T34E4 002:967 JLINK_SetResetType(JLINKARM_RESET_TYPE_NORMAL)  returns JLINKARM_RESET_TYPE_NORMAL (0000ms, 2697ms total)
T34E4 002:967 JLINK_Reset() -- CPU is running >0x1A2 TIF> -- CPU is running >0x1A2 TIF> >0x35 TIF> -- CPU is running >0x1A2 TIF> -- CPU is running >0x1A0 TIF> -- CPU is running >0x1A0 TIF> -- CPU is running >0x1A0 TIF> -- CPU is running >0x1A0 TIF> -- CPU is running >0x1A0 TIF> -- CPU is running >0x1A0 TIF> -- CPU is running >0x1A0 TIF> -- CPU is running >0x1A0 TIF> -- CPU is running >0x1A0 TIF> -- CPU is running >0x1A0 TIF> -- CPU is running >0x1A0 TIF> -- CPU is running >0x1A0 TIF> -- CPU is running
 >0x1A0 TIF> -- CPU is running >0x1A0 TIF> -- CPU is running >0x1A0 TIF> -- CPU is running >0x1A2 TIF> -- CPU is running >0x1A2 TIF> -- CPU is running >0x1A0 TIF> -- CPU is running >0x1A0 TIF> >0x11E4 TIF> >0x1A2 TIF> >0x1A0 TIF> >0x1A0 TIF> (0038ms, 2735ms total)
T34E4 003:005 JLINK_Halt()  returns 0x00 (0000ms, 2735ms total)
T34E4 003:006 JLINK_IsHalted()  returns TRUE (0000ms, 2735ms total)
T34E4 003:006 JLINK_ReadMemU32(0xE000EDF0, 0x0001 Items, ...) >0x1A0 TIF> - Data: 03 00 03 00  returns 0x01 (0001ms, 2736ms total)
T34E4 003:007 JLINK_WriteU32(0xE000EDF0, 0xA05F0003) >0x1A2 TIF>  returns 0x00 (0001ms, 2737ms total)
T34E4 003:008 JLINK_WriteU32(0xE000EDFC, 0x01000000) >0x1A2 TIF>  returns 0x00 (0001ms, 2738ms total)
T34E4 003:053 JLINK_GetHWStatus(...)  returns 0x00 (0001ms, 2739ms total)
T34E4 003:095 JLINK_GetNumBPUnits(Type = 0xFFFFFF00)  returns 0x06 (0000ms, 2739ms total)
T34E4 003:095 JLINK_GetNumBPUnits(Type = 0xF0)  returns 0x2000 (0000ms, 2739ms total)
T34E4 003:095 JLINK_GetNumWPUnits()  returns 0x04 (0000ms, 2739ms total)
T34E4 003:131 JLINK_GetSpeed()  returns 0x7D0 (0000ms, 2739ms total)
T34E4 003:158 JLINK_ReadMemU32(0xE000E004, 0x0001 Items, ...) >0x1A0 TIF> - Data: 02 00 00 00  returns 0x01 (0001ms, 2740ms total)
T34E4 003:160 JLINK_ReadMemU32(0xE000E004, 0x0001 Items, ...) >0x1A0 TIF> - Data: 02 00 00 00  returns 0x01 (0000ms, 2740ms total)
T34E4 003:161 JLINK_WriteMem(0xE0001000, 0x001C Bytes, ...) - Data: 01 00 00 00 00 00 00 00 00 00 00 00 00 00 00 00 ... >0x2E0 TIF>  returns 0x1C (0003ms, 2743ms total)
T34E4 003:164 JLINK_ReadMem (0xE0001000, 0x001C Bytes, ...) >0x2D2 TIF> - Data: 01 00 00 40 00 00 00 00 00 00 00 00 00 00 00 00 ...  returns 0x00 (0002ms, 2745ms total)
T34E4 003:166 JLINK_Halt()  returns 0x00 (0000ms, 2745ms total)
T34E4 003:166 JLINK_IsHalted()  returns TRUE (0000ms, 2745ms total)
T34E4 003:176 JLINK_WriteMem(0x20000000, 0x0180 Bytes, ...) - Data: 00 BE 0A E0 0D 78 2D 06 68 40 08 24 40 00 00 D3 ... >0x154D TIF>  returns 0x180 (0009ms, 2754ms total)
T34E4 003:186 JLINK_WriteReg(R0, 0x08000000)  returns 0x00 (0000ms, 2754ms total)
T34E4 003:186 JLINK_WriteReg(R1, 0x0A037A00)  returns 0x00 (0000ms, 2754ms total)
T34E4 003:186 JLINK_WriteReg(R2, 0x00000001)  returns 0x00 (0000ms, 2754ms total)
T34E4 003:186 JLINK_WriteReg(R3, 0x00000000)  returns 0x00 (0000ms, 2754ms total)
T34E4 003:186 JLINK_WriteReg(R4, 0x00000000)  returns 0x00 (0000ms, 2754ms total)
T34E4 003:186 JLINK_WriteReg(R5, 0x00000000)  returns 0x00 (0000ms, 2754ms total)
T34E4 003:186 JLINK_WriteReg(R6, 0x00000000)  returns 0x00 (0000ms, 2754ms total)
T34E4 003:186 JLINK_WriteReg(R7, 0x00000000)  returns 0x00 (0000ms, 2754ms total)
T34E4 003:186 JLINK_WriteReg(R8, 0x00000000)  returns 0x00 (0000ms, 2754ms total)
T34E4 003:186 JLINK_WriteReg(R9, 0x2000017C)  returns 0x00 (0000ms, 2754ms total)
T34E4 003:186 JLINK_WriteReg(R10, 0x00000000)  returns 0x00 (0000ms, 2754ms total)
T34E4 003:186 JLINK_WriteReg(R11, 0x00000000)  returns 0x00 (0000ms, 2754ms total)
T34E4 003:186 JLINK_WriteReg(R12, 0x00000000)  returns 0x00 (0000ms, 2754ms total)
T34E4 003:186 JLINK_WriteReg(R13 (SP), 0x20001000)  returns 0x00 (0000ms, 2754ms total)
T34E4 003:186 JLINK_WriteReg(R14, 0x20000001)  returns 0x00 (0000ms, 2754ms total)
T34E4 003:186 JLINK_WriteReg(R15 (PC), 0x20000054)  returns 0x00 (0001ms, 2755ms total)
T34E4 003:187 JLINK_WriteReg(XPSR, 0x01000000)  returns 0x00 (0000ms, 2755ms total)
T34E4 003:187 JLINK_WriteReg(MSP, 0x20001000)  returns 0x00 (0000ms, 2755ms total)
T34E4 003:187 JLINK_WriteReg(PSP, 0x20001000)  returns 0x00 (0000ms, 2755ms total)
T34E4 003:187 JLINK_WriteReg(CFBP, 0x00000000)  returns 0x00 (0000ms, 2755ms total)
T34E4 003:187 JLINK_SetBPEx(Addr = 0x20000000, Type = 0xFFFFFFF2) >0x1A0 TIF>  returns 0x00000001 (0000ms, 2755ms total)
T34E4 003:188 JLINK_Go() >0x1A2 TIF> >0x1A0 TIF> >0x1A2 TIF> >0x1A2 TIF> >0x1A2 TIF> >0x1A2 TIF> >0x1A2 TIF> >0x1A2 TIF> >0x20E TIF> >0x13A TIF> >0x13A TIF> >0x13A TIF> >0x13A TIF> >0x13A TIF> >0x13A TIF> >0x13A TIF> >0x1A2 TIF> (0016ms, 2772ms total)
T34E4 003:204 JLINK_IsHalted() -- CPU is running >0x1A0 TIF> >0x11E4 TIF> >0x1A0 TIF>  returns TRUE (0008ms, 2780ms total)
T34E4 003:212 JLINK_ReadReg(R15 (PC))  returns 0x20000000 (0000ms, 2772ms total)
T34E4 003:212 JLINK_ClrBPEx(BPHandle = 0x00000001)  returns 0x00 (0000ms, 2772ms total)
T34E4 003:212 JLINK_ReadReg(R0)  returns 0x00000000 (0000ms, 2772ms total)
T34E4 003:214 JLINK_WriteReg(R0, 0x08000000)  returns 0x00 (0001ms, 2773ms total)
T34E4 003:215 JLINK_WriteReg(R1, 0x00004000)  returns 0x00 (0000ms, 2773ms total)
T34E4 003:215 JLINK_WriteReg(R2, 0x000000FF)  returns 0x00 (0000ms, 2773ms total)
T34E4 003:215 JLINK_WriteReg(R3, 0x00000000)  returns 0x00 (0000ms, 2773ms total)
T34E4 003:215 JLINK_WriteReg(R4, 0x00000000)  returns 0x00 (0000ms, 2773ms total)
T34E4 003:215 JLINK_WriteReg(R5, 0x00000000)  returns 0x00 (0000ms, 2773ms total)
T34E4 003:215 JLINK_WriteReg(R6, 0x00000000)  returns 0x00 (0000ms, 2773ms total)
T34E4 003:215 JLINK_WriteReg(R7, 0x00000000)  returns 0x00 (0000ms, 2773ms total)
T34E4 003:215 JLINK_WriteReg(R8, 0x00000000)  returns 0x00 (0000ms, 2773ms total)
T34E4 003:215 JLINK_WriteReg(R9, 0x2000017C)  returns 0x00 (0000ms, 2773ms total)
T34E4 003:215 JLINK_WriteReg(R10, 0x00000000)  returns 0x00 (0000ms, 2773ms total)
T34E4 003:215 JLINK_WriteReg(R11, 0x00000000)  returns 0x00 (0000ms, 2773ms total)
T34E4 003:215 JLINK_WriteReg(R12, 0x00000000)  returns 0x00 (0000ms, 2773ms total)
T34E4 003:215 JLINK_WriteReg(R13 (SP), 0x20001000)  returns 0x00 (0000ms, 2773ms total)
T34E4 003:215 JLINK_WriteReg(R14, 0x20000001)  returns 0x00 (0001ms, 2774ms total)
T34E4 003:216 JLINK_WriteReg(R15 (PC), 0x20000020)  returns 0x00 (0000ms, 2774ms total)
T34E4 003:216 JLINK_WriteReg(XPSR, 0x01000000)  returns 0x00 (0000ms, 2774ms total)
T34E4 003:216 JLINK_WriteReg(MSP, 0x20001000)  returns 0x00 (0000ms, 2774ms total)
T34E4 003:216 JLINK_WriteReg(PSP, 0x20001000)  returns 0x00 (0000ms, 2774ms total)
T34E4 003:216 JLINK_WriteReg(CFBP, 0x00000000)  returns 0x00 (0000ms, 2774ms total)
T34E4 003:216 JLINK_SetBPEx(Addr = 0x20000000, Type = 0xFFFFFFF2)  returns 0x00000002 (0000ms, 2774ms total)
T34E4 003:216 JLINK_Go() >0x1A0 TIF> >0x20E TIF> >0x13A TIF> >0x13A TIF> >0x13A TIF> >0x13A TIF> >0x1A2 TIF> (0007ms, 2781ms total)
T34E4 003:223 JLINK_IsHalted() -- CPU is running >0x1A0 TIF> >0x11E4 TIF> >0x1A0 TIF>  returns TRUE (0008ms, 2789ms total)
T34E4 003:231 JLINK_ReadReg(R15 (PC))  returns 0x20000000 (0000ms, 2781ms total)
T34E4 003:231 JLINK_ClrBPEx(BPHandle = 0x00000002)  returns 0x00 (0000ms, 2781ms total)
T34E4 003:231 JLINK_ReadReg(R0)  returns 0x00000001 (0000ms, 2781ms total)
T34E4 003:231 JLINK_WriteReg(R0, 0x08000000)  returns 0x00 (0000ms, 2781ms total)
T34E4 003:231 JLINK_WriteReg(R1, 0x00004000)  returns 0x00 (0000ms, 2781ms total)
T34E4 003:231 JLINK_WriteReg(R2, 0x000000FF)  returns 0x00 (0000ms, 2781ms total)
T34E4 003:231 JLINK_WriteReg(R3, 0x00000000)  returns 0x00 (0000ms, 2781ms total)
T34E4 003:231 JLINK_WriteReg(R4, 0x00000000)  returns 0x00 (0001ms, 2782ms total)
T34E4 003:232 JLINK_WriteReg(R5, 0x00000000)  returns 0x00 (0000ms, 2782ms total)
T34E4 003:232 JLINK_WriteReg(R6, 0x00000000)  returns 0x00 (0000ms, 2782ms total)
T34E4 003:232 JLINK_WriteReg(R7, 0x00000000)  returns 0x00 (0000ms, 2782ms total)
T34E4 003:232 JLINK_WriteReg(R8, 0x00000000)  returns 0x00 (0000ms, 2782ms total)
T34E4 003:232 JLINK_WriteReg(R9, 0x2000017C)  returns 0x00 (0000ms, 2782ms total)
T34E4 003:232 JLINK_WriteReg(R10, 0x00000000)  returns 0x00 (0000ms, 2782ms total)
T34E4 003:232 JLINK_WriteReg(R11, 0x00000000)  returns 0x00 (0000ms, 2782ms total)
T34E4 003:232 JLINK_WriteReg(R12, 0x00000000)  returns 0x00 (0000ms, 2782ms total)
T34E4 003:232 JLINK_WriteReg(R13 (SP), 0x20001000)  returns 0x00 (0000ms, 2782ms total)
T34E4 003:232 JLINK_WriteReg(R14, 0x20000001)  returns 0x00 (0000ms, 2782ms total)
T34E4 003:232 JLINK_WriteReg(R15 (PC), 0x200000BC)  returns 0x00 (0000ms, 2782ms total)
T34E4 003:232 JLINK_WriteReg(XPSR, 0x01000000)  returns 0x00 (0000ms, 2782ms total)
T34E4 003:232 JLINK_WriteReg(MSP, 0x20001000)  returns 0x00 (0000ms, 2782ms total)
T34E4 003:232 JLINK_WriteReg(PSP, 0x20001000)  returns 0x00 (0001ms, 2783ms total)
T34E4 003:233 JLINK_WriteReg(CFBP, 0x00000000)  returns 0x00 (0000ms, 2783ms total)
T34E4 003:233 JLINK_SetBPEx(Addr = 0x20000000, Type = 0xFFFFFFF2)  returns 0x00000003 (0000ms, 2783ms total)
T34E4 003:233 JLINK_Go() >0x1A0 TIF> >0x20E TIF> >0x13A TIF> >0x13A TIF> >0x13A TIF> >0x1A2 TIF> (0006ms, 2789ms total)
T34E4 003:239 JLINK_IsHalted() -- CPU is running >0x1A0 TIF>  returns FALSE (0001ms, 2790ms total)
T34E4 003:446 JLINK_IsHalted() -- CPU is running >0x1A0 TIF>  returns FALSE (0000ms, 2789ms total)
T34E4 003:449 JLINK_IsHalted() -- CPU is running >0x1A0 TIF>  returns FALSE (0000ms, 2789ms total)
T34E4 003:451 JLINK_IsHalted() -- CPU is running >0x1A0 TIF>  returns FALSE (0001ms, 2790ms total)
T34E4 003:454 JLINK_IsHalted() -- CPU is running >0x1A0 TIF>  returns FALSE (0001ms, 2790ms total)
T34E4 003:457 JLINK_IsHalted() -- CPU is running >0x1A0 TIF>  returns FALSE (0001ms, 2790ms total)
T34E4 003:460 JLINK_IsHalted() -- CPU is running >0x1A0 TIF>  returns FALSE (0001ms, 2790ms total)
T34E4 003:463 JLINK_IsHalted() -- CPU is running >0x1A0 TIF>  returns FALSE (0001ms, 2790ms total)
T34E4 003:466 JLINK_IsHalted() -- CPU is running >0x1A0 TIF>  returns FALSE (0001ms, 2790ms total)
T34E4 003:469 JLINK_IsHalted() -- CPU is running >0x1A0 TIF>  returns FALSE (0001ms, 2790ms total)
T34E4 003:472 JLINK_IsHalted() -- CPU is running >0x1A0 TIF>  returns FALSE (0001ms, 2790ms total)
T34E4 003:475 JLINK_IsHalted() -- CPU is running >0x1A0 TIF>  returns FALSE (0001ms, 2790ms total)
T34E4 003:478 JLINK_IsHalted() -- CPU is running >0x1A0 TIF>  returns FALSE (0001ms, 2790ms total)
T34E4 003:481 JLINK_IsHalted() -- CPU is running >0x1A0 TIF>  returns FALSE (0001ms, 2790ms total)
T34E4 003:484 JLINK_IsHalted() -- CPU is running >0x1A0 TIF>  returns FALSE (0001ms, 2790ms total)
T34E4 003:487 JLINK_IsHalted() -- CPU is running >0x1A0 TIF>  returns FALSE (0001ms, 2790ms total)
T34E4 003:490 JLINK_IsHalted() -- CPU is running >0x1A0 TIF>  returns FALSE (0001ms, 2790ms total)
T34E4 003:493 JLINK_IsHalted() -- CPU is running >0x1A0 TIF>  returns FALSE (0001ms, 2790ms total)
T34E4 003:496 JLINK_IsHalted() -- CPU is running >0x1A0 TIF>  returns FALSE (0001ms, 2790ms total)
T34E4 003:499 JLINK_IsHalted() -- CPU is running >0x1A0 TIF>  returns FALSE (0001ms, 2790ms total)
T34E4 003:502 JLINK_IsHalted() -- CPU is running >0x1A0 TIF>  returns FALSE (0001ms, 2790ms total)
T34E4 003:505 JLINK_IsHalted() -- CPU is running >0x1A0 TIF>  returns FALSE (0001ms, 2790ms total)
T34E4 003:508 JLINK_IsHalted() -- CPU is running >0x1A0 TIF>  returns FALSE (0001ms, 2790ms total)
T34E4 003:511 JLINK_IsHalted() -- CPU is running >0x1A0 TIF>  returns FALSE (0001ms, 2790ms total)
T34E4 003:514 JLINK_IsHalted() -- CPU is running >0x1A0 TIF>  returns FALSE (0001ms, 2790ms total)
T34E4 003:517 JLINK_IsHalted() -- CPU is running >0x1A0 TIF>  returns FALSE (0001ms, 2790ms total)
T34E4 003:544 JLINK_IsHalted() -- CPU is running >0x1A0 TIF>  returns FALSE (0001ms, 2790ms total)
T34E4 003:547 JLINK_IsHalted() -- CPU is running >0x1A0 TIF>  returns FALSE (0001ms, 2790ms total)
T34E4 003:550 JLINK_IsHalted() -- CPU is running >0x1A0 TIF>  returns FALSE (0001ms, 2790ms total)
T34E4 003:553 JLINK_IsHalted() -- CPU is running >0x1A0 TIF>  returns FALSE (0001ms, 2790ms total)
T34E4 003:556 JLINK_IsHalted() -- CPU is running >0x1A0 TIF>  returns FALSE (0001ms, 2790ms total)
T34E4 003:559 JLINK_IsHalted() -- CPU is running >0x1A0 TIF>  returns FALSE (0001ms, 2790ms total)
T34E4 003:562 JLINK_IsHalted() -- CPU is running >0x1A0 TIF>  returns FALSE (0001ms, 2790ms total)
T34E4 003:565 JLINK_IsHalted() -- CPU is running >0x1A0 TIF>  returns FALSE (0001ms, 2790ms total)
T34E4 003:568 JLINK_IsHalted() -- CPU is running >0x1A0 TIF>  returns FALSE (0001ms, 2790ms total)
T34E4 003:571 JLINK_IsHalted() -- CPU is running >0x1A0 TIF>  returns FALSE (0001ms, 2790ms total)
T34E4 003:574 JLINK_IsHalted() -- CPU is running >0x1A0 TIF>  returns FALSE (0001ms, 2790ms total)
T34E4 003:577 JLINK_IsHalted() -- CPU is running >0x1A0 TIF>  returns FALSE (0001ms, 2790ms total)
T34E4 003:580 JLINK_IsHalted() -- CPU is running >0x1A0 TIF>  returns FALSE (0001ms, 2790ms total)
T34E4 003:583 JLINK_IsHalted() -- CPU is running >0x1A0 TIF>  returns FALSE (0001ms, 2790ms total)
T34E4 003:586 JLINK_IsHalted() -- CPU is running >0x1A0 TIF>  returns FALSE (0001ms, 2790ms total)
T34E4 003:589 JLINK_IsHalted() -- CPU is running >0x1A0 TIF>  returns FALSE (0001ms, 2790ms total)
T34E4 003:592 JLINK_IsHalted() -- CPU is running >0x1A0 TIF>  returns FALSE (0001ms, 2790ms total)
T34E4 003:595 JLINK_IsHalted() -- CPU is running >0x1A0 TIF>  returns FALSE (0001ms, 2790ms total)
T34E4 003:598 JLINK_IsHalted() -- CPU is running >0x1A0 TIF>  returns FALSE (0001ms, 2790ms total)
T34E4 003:601 JLINK_IsHalted() -- CPU is running >0x1A0 TIF>  returns FALSE (0001ms, 2790ms total)
T34E4 003:604 JLINK_IsHalted() -- CPU is running >0x1A0 TIF>  returns FALSE (0001ms, 2790ms total)
T34E4 003:607 JLINK_IsHalted() -- CPU is running >0x1A0 TIF>  returns FALSE (0001ms, 2790ms total)
T34E4 003:610 JLINK_IsHalted() -- CPU is running >0x1A0 TIF>  returns FALSE (0001ms, 2790ms total)
T34E4 003:613 JLINK_IsHalted() -- CPU is running >0x1A0 TIF>  returns FALSE (0001ms, 2790ms total)
T34E4 003:616 JLINK_IsHalted() -- CPU is running >0x1A0 TIF> >0x11E4 TIF> >0x1A0 TIF>  returns TRUE (0008ms, 2797ms total)
T34E4 003:624 JLINK_ReadReg(R15 (PC))  returns 0x20000000 (0000ms, 2789ms total)
T34E4 003:624 JLINK_ClrBPEx(BPHandle = 0x00000003)  returns 0x00 (0000ms, 2789ms total)
T34E4 003:624 JLINK_ReadReg(R0)  returns 0x00000000 (0000ms, 2789ms total)
T34E4 003:626 JLINK_WriteReg(R0, 0x08004000)  returns 0x00 (0000ms, 2789ms total)
T34E4 003:626 JLINK_WriteReg(R1, 0x00004000)  returns 0x00 (0000ms, 2789ms total)
T34E4 003:626 JLINK_WriteReg(R2, 0x000000FF)  returns 0x00 (0000ms, 2789ms total)
T34E4 003:626 JLINK_WriteReg(R3, 0x00000000)  returns 0x00 (0000ms, 2789ms total)
T34E4 003:626 JLINK_WriteReg(R4, 0x00000000)  returns 0x00 (0000ms, 2789ms total)
T34E4 003:626 JLINK_WriteReg(R5, 0x00000000)  returns 0x00 (0000ms, 2789ms total)
T34E4 003:626 JLINK_WriteReg(R6, 0x00000000)  returns 0x00 (0000ms, 2789ms total)
T34E4 003:626 JLINK_WriteReg(R7, 0x00000000)  returns 0x00 (0000ms, 2789ms total)
T34E4 003:626 JLINK_WriteReg(R8, 0x00000000)  returns 0x00 (0000ms, 2789ms total)
T34E4 003:626 JLINK_WriteReg(R9, 0x2000017C)  returns 0x00 (0000ms, 2789ms total)
T34E4 003:626 JLINK_WriteReg(R10, 0x00000000)  returns 0x00 (0000ms, 2789ms total)
T34E4 003:626 JLINK_WriteReg(R11, 0x00000000)  returns 0x00 (0000ms, 2789ms total)
T34E4 003:626 JLINK_WriteReg(R12, 0x00000000)  returns 0x00 (0000ms, 2789ms total)
T34E4 003:627 JLINK_WriteReg(R13 (SP), 0x20001000)  returns 0x00 (0000ms, 2789ms total)
T34E4 003:627 JLINK_WriteReg(R14, 0x20000001)  returns 0x00 (0000ms, 2789ms total)
T34E4 003:627 JLINK_WriteReg(R15 (PC), 0x20000020)  returns 0x00 (0000ms, 2789ms total)
T34E4 003:627 JLINK_WriteReg(XPSR, 0x01000000)  returns 0x00 (0000ms, 2789ms total)
T34E4 003:627 JLINK_WriteReg(MSP, 0x20001000)  returns 0x00 (0000ms, 2789ms total)
T34E4 003:627 JLINK_WriteReg(PSP, 0x20001000)  returns 0x00 (0000ms, 2789ms total)
T34E4 003:627 JLINK_WriteReg(CFBP, 0x00000000)  returns 0x00 (0000ms, 2789ms total)
T34E4 003:627 JLINK_SetBPEx(Addr = 0x20000000, Type = 0xFFFFFFF2)  returns 0x00000004 (0000ms, 2789ms total)
T34E4 003:627 JLINK_Go() >0x1A0 TIF> >0x20E TIF> >0x13A TIF> >0x13A TIF> >0x13A TIF> >0x13A TIF> >0x13A TIF> >0x13A TIF> >0x1A2 TIF> (0009ms, 2798ms total)
T34E4 003:636 JLINK_IsHalted() -- CPU is running >0x1A0 TIF> >0x11E4 TIF> >0x1A0 TIF>  returns TRUE (0008ms, 2806ms total)
T34E4 003:644 JLINK_ReadReg(R15 (PC))  returns 0x20000000 (0000ms, 2798ms total)
T34E4 003:644 JLINK_ClrBPEx(BPHandle = 0x00000004)  returns 0x00 (0000ms, 2798ms total)
T34E4 003:644 JLINK_ReadReg(R0)  returns 0x00000001 (0000ms, 2798ms total)
T34E4 003:644 JLINK_WriteReg(R0, 0x08004000)  returns 0x00 (0000ms, 2798ms total)
T34E4 003:644 JLINK_WriteReg(R1, 0x00004000)  returns 0x00 (0000ms, 2798ms total)
T34E4 003:644 JLINK_WriteReg(R2, 0x000000FF)  returns 0x00 (0000ms, 2798ms total)
T34E4 003:644 JLINK_WriteReg(R3, 0x00000000)  returns 0x00 (0000ms, 2798ms total)
T34E4 003:644 JLINK_WriteReg(R4, 0x00000000)  returns 0x00 (0001ms, 2799ms total)
T34E4 003:645 JLINK_WriteReg(R5, 0x00000000)  returns 0x00 (0000ms, 2799ms total)
T34E4 003:645 JLINK_WriteReg(R6, 0x00000000)  returns 0x00 (0000ms, 2799ms total)
T34E4 003:645 JLINK_WriteReg(R7, 0x00000000)  returns 0x00 (0000ms, 2799ms total)
T34E4 003:645 JLINK_WriteReg(R8, 0x00000000)  returns 0x00 (0000ms, 2799ms total)
T34E4 003:645 JLINK_WriteReg(R9, 0x2000017C)  returns 0x00 (0000ms, 2799ms total)
T34E4 003:645 JLINK_WriteReg(R10, 0x00000000)  returns 0x00 (0000ms, 2799ms total)
T34E4 003:645 JLINK_WriteReg(R11, 0x00000000)  returns 0x00 (0000ms, 2799ms total)
T34E4 003:645 JLINK_WriteReg(R12, 0x00000000)  returns 0x00 (0000ms, 2799ms total)
T34E4 003:645 JLINK_WriteReg(R13 (SP), 0x20001000)  returns 0x00 (0000ms, 2799ms total)
T34E4 003:645 JLINK_WriteReg(R14, 0x20000001)  returns 0x00 (0000ms, 2799ms total)
T34E4 003:645 JLINK_WriteReg(R15 (PC), 0x200000BC)  returns 0x00 (0000ms, 2799ms total)
T34E4 003:645 JLINK_WriteReg(XPSR, 0x01000000)  returns 0x00 (0000ms, 2799ms total)
T34E4 003:645 JLINK_WriteReg(MSP, 0x20001000)  returns 0x00 (0000ms, 2799ms total)
T34E4 003:646 JLINK_WriteReg(PSP, 0x20001000)  returns 0x00 (0000ms, 2800ms total)
T34E4 003:646 JLINK_WriteReg(CFBP, 0x00000000)  returns 0x00 (0000ms, 2800ms total)
T34E4 003:646 JLINK_SetBPEx(Addr = 0x20000000, Type = 0xFFFFFFF2)  returns 0x00000005 (0000ms, 2800ms total)
T34E4 003:646 JLINK_Go() >0x1A0 TIF> >0x20E TIF> >0x13A TIF> >0x13A TIF> >0x13A TIF> >0x1A2 TIF> (0006ms, 2806ms total)
T34E4 003:652 JLINK_IsHalted() -- CPU is running >0x1A0 TIF>  returns FALSE (0001ms, 2807ms total)
T34E4 003:685 JLINK_IsHalted() -- CPU is running >0x1A0 TIF>  returns FALSE (0001ms, 2807ms total)
T34E4 003:688 JLINK_IsHalted() -- CPU is running >0x1A0 TIF>  returns FALSE (0001ms, 2807ms total)
T34E4 003:691 JLINK_IsHalted() -- CPU is running >0x1A0 TIF>  returns FALSE (0001ms, 2807ms total)
T34E4 003:694 JLINK_IsHalted() -- CPU is running >0x1A0 TIF>  returns FALSE (0001ms, 2807ms total)
T34E4 003:697 JLINK_IsHalted() -- CPU is running >0x1A0 TIF>  returns FALSE (0001ms, 2807ms total)
T34E4 003:700 JLINK_IsHalted() -- CPU is running >0x1A0 TIF>  returns FALSE (0001ms, 2807ms total)
T34E4 003:703 JLINK_IsHalted() -- CPU is running >0x1A0 TIF>  returns FALSE (0001ms, 2807ms total)
T34E4 003:706 JLINK_IsHalted() -- CPU is running >0x1A0 TIF>  returns FALSE (0001ms, 2807ms total)
T34E4 003:709 JLINK_IsHalted() -- CPU is running >0x1A0 TIF>  returns FALSE (0001ms, 2807ms total)
T34E4 003:712 JLINK_IsHalted() -- CPU is running >0x1A0 TIF>  returns FALSE (0001ms, 2807ms total)
T34E4 003:715 JLINK_IsHalted() -- CPU is running >0x1A0 TIF>  returns FALSE (0001ms, 2807ms total)
T34E4 003:718 JLINK_IsHalted() -- CPU is running >0x1A0 TIF>  returns FALSE (0001ms, 2807ms total)
T34E4 003:721 JLINK_IsHalted() -- CPU is running >0x1A0 TIF>  returns FALSE (0001ms, 2807ms total)
T34E4 003:724 JLINK_IsHalted() -- CPU is running >0x1A0 TIF>  returns FALSE (0001ms, 2807ms total)
T34E4 003:727 JLINK_IsHalted() -- CPU is running >0x1A0 TIF>  returns FALSE (0001ms, 2807ms total)
T34E4 003:730 JLINK_IsHalted() -- CPU is running >0x1A0 TIF>  returns FALSE (0001ms, 2807ms total)
T34E4 003:733 JLINK_IsHalted() -- CPU is running >0x1A0 TIF>  returns FALSE (0001ms, 2807ms total)
T34E4 003:736 JLINK_IsHalted() -- CPU is running >0x1A0 TIF>  returns FALSE (0001ms, 2807ms total)
T34E4 003:739 JLINK_IsHalted() -- CPU is running >0x1A0 TIF>  returns FALSE (0001ms, 2807ms total)
T34E4 003:768 JLINK_IsHalted() -- CPU is running >0x1A0 TIF>  returns FALSE (0001ms, 2807ms total)
T34E4 003:771 JLINK_IsHalted() -- CPU is running >0x1A0 TIF>  returns FALSE (0001ms, 2807ms total)
T34E4 003:774 JLINK_IsHalted() -- CPU is running >0x1A0 TIF>  returns FALSE (0001ms, 2807ms total)
T34E4 003:777 JLINK_IsHalted() -- CPU is running >0x1A0 TIF>  returns FALSE (0001ms, 2807ms total)
T34E4 003:780 JLINK_IsHalted() -- CPU is running >0x1A0 TIF>  returns FALSE (0001ms, 2807ms total)
T34E4 003:783 JLINK_IsHalted() -- CPU is running >0x1A0 TIF>  returns FALSE (0001ms, 2807ms total)
T34E4 003:786 JLINK_IsHalted() -- CPU is running >0x1A0 TIF>  returns FALSE (0001ms, 2807ms total)
T34E4 003:789 JLINK_IsHalted() -- CPU is running >0x1A0 TIF>  returns FALSE (0001ms, 2807ms total)
T34E4 003:792 JLINK_IsHalted() -- CPU is running >0x1A0 TIF>  returns FALSE (0001ms, 2807ms total)
T34E4 003:795 JLINK_IsHalted() -- CPU is running >0x1A0 TIF>  returns FALSE (0001ms, 2807ms total)
T34E4 003:798 JLINK_IsHalted() -- CPU is running >0x1A0 TIF>  returns FALSE (0001ms, 2807ms total)
T34E4 003:801 JLINK_IsHalted() -- CPU is running >0x1A0 TIF>  returns FALSE (0001ms, 2807ms total)
T34E4 003:804 JLINK_IsHalted() -- CPU is running >0x1A0 TIF>  returns FALSE (0001ms, 2807ms total)
T34E4 003:807 JLINK_IsHalted() -- CPU is running >0x1A0 TIF>  returns FALSE (0001ms, 2807ms total)
T34E4 003:810 JLINK_IsHalted() -- CPU is running >0x1A0 TIF>  returns FALSE (0001ms, 2807ms total)
T34E4 003:813 JLINK_IsHalted() -- CPU is running >0x1A0 TIF>  returns FALSE (0001ms, 2807ms total)
T34E4 003:816 JLINK_IsHalted() -- CPU is running >0x1A0 TIF>  returns FALSE (0000ms, 2806ms total)
T34E4 003:819 JLINK_IsHalted() -- CPU is running >0x1A0 TIF>  returns FALSE (0001ms, 2807ms total)
T34E4 003:822 JLINK_IsHalted() -- CPU is running >0x1A0 TIF>  returns FALSE (0001ms, 2807ms total)
T34E4 003:825 JLINK_IsHalted() -- CPU is running >0x1A0 TIF>  returns FALSE (0001ms, 2807ms total)
T34E4 003:828 JLINK_IsHalted() -- CPU is running >0x1A0 TIF>  returns FALSE (0001ms, 2807ms total)
T34E4 003:831 JLINK_IsHalted() -- CPU is running >0x1A0 TIF>  returns FALSE (0001ms, 2807ms total)
T34E4 003:834 JLINK_IsHalted() -- CPU is running >0x1A0 TIF>  returns FALSE (0001ms, 2807ms total)
T34E4 003:837 JLINK_IsHalted() -- CPU is running >0x1A0 TIF>  returns FALSE (0001ms, 2807ms total)
T34E4 003:841 JLINK_IsHalted() -- CPU is running >0x1A0 TIF>  returns FALSE (0001ms, 2807ms total)
T34E4 003:844 JLINK_IsHalted() -- CPU is running >0x1A0 TIF>  returns FALSE (0001ms, 2807ms total)
T34E4 003:846 JLINK_IsHalted() -- CPU is running >0x1A0 TIF>  returns FALSE (0002ms, 2808ms total)
T34E4 003:883 JLINK_IsHalted() -- CPU is running >0x1A0 TIF>  returns FALSE (0001ms, 2807ms total)
T34E4 003:886 JLINK_IsHalted() -- CPU is running >0x1A0 TIF>  returns FALSE (0001ms, 2807ms total)
T34E4 003:889 JLINK_IsHalted() -- CPU is running >0x1A0 TIF>  returns FALSE (0001ms, 2807ms total)
T34E4 003:892 JLINK_IsHalted() -- CPU is running >0x1A0 TIF>  returns FALSE (0001ms, 2807ms total)
T34E4 003:895 JLINK_IsHalted() -- CPU is running >0x1A0 TIF>  returns FALSE (0001ms, 2807ms total)
T34E4 003:898 JLINK_IsHalted() -- CPU is running >0x1A0 TIF>  returns FALSE (0001ms, 2807ms total)
T34E4 003:901 JLINK_IsHalted() -- CPU is running >0x1A0 TIF>  returns FALSE (0000ms, 2806ms total)
T34E4 003:904 JLINK_IsHalted() -- CPU is running >0x1A0 TIF>  returns FALSE (0001ms, 2807ms total)
T34E4 003:907 JLINK_IsHalted() -- CPU is running >0x1A0 TIF>  returns FALSE (0001ms, 2807ms total)
T34E4 003:910 JLINK_IsHalted() -- CPU is running >0x1A0 TIF>  returns FALSE (0001ms, 2807ms total)
T34E4 003:913 JLINK_IsHalted() -- CPU is running >0x1A0 TIF>  returns FALSE (0001ms, 2807ms total)
T34E4 003:916 JLINK_IsHalted() -- CPU is running >0x1A0 TIF>  returns FALSE (0000ms, 2806ms total)
T34E4 003:918 JLINK_IsHalted() -- CPU is running >0x1A0 TIF>  returns FALSE (0000ms, 2806ms total)
T34E4 003:920 JLINK_IsHalted() -- CPU is running >0x1A0 TIF>  returns FALSE (0000ms, 2806ms total)
T34E4 003:922 JLINK_IsHalted() -- CPU is running >0x1A0 TIF>  returns FALSE (0000ms, 2806ms total)
T34E4 003:924 JLINK_IsHalted() -- CPU is running >0x1A0 TIF>  returns FALSE (0000ms, 2806ms total)
T34E4 003:926 JLINK_IsHalted() -- CPU is running >0x1A0 TIF>  returns FALSE (0000ms, 2806ms total)
T34E4 003:928 JLINK_IsHalted() -- CPU is running >0x1A0 TIF>  returns FALSE (0000ms, 2806ms total)
T34E4 003:930 JLINK_IsHalted() -- CPU is running >0x1A0 TIF>  returns FALSE (0000ms, 2806ms total)
T34E4 003:932 JLINK_IsHalted() -- CPU is running >0x1A0 TIF>  returns FALSE (0000ms, 2806ms total)
T34E4 003:934 JLINK_IsHalted() -- CPU is running >0x1A0 TIF>  returns FALSE (0001ms, 2807ms total)
T34E4 003:936 JLINK_IsHalted() -- CPU is running >0x1A0 TIF>  returns FALSE (0001ms, 2807ms total)
T34E4 003:938 JLINK_IsHalted() -- CPU is running >0x1A0 TIF>  returns FALSE (0001ms, 2807ms total)
T34E4 003:941 JLINK_IsHalted() -- CPU is running >0x1A0 TIF>  returns FALSE (0000ms, 2806ms total)
T34E4 003:943 JLINK_IsHalted() -- CPU is running >0x1A0 TIF>  returns FALSE (0001ms, 2807ms total)
T34E4 003:946 JLINK_IsHalted() -- CPU is running >0x1A0 TIF>  returns FALSE (0001ms, 2807ms total)
T34E4 003:949 JLINK_IsHalted() -- CPU is running >0x1A0 TIF>  returns FALSE (0001ms, 2807ms total)
T34E4 003:952 JLINK_IsHalted() -- CPU is running >0x1A0 TIF>  returns FALSE (0001ms, 2807ms total)
T34E4 003:955 JLINK_IsHalted() -- CPU is running >0x1A0 TIF>  returns FALSE (0001ms, 2807ms total)
T34E4 003:958 JLINK_IsHalted() -- CPU is running >0x1A0 TIF>  returns FALSE (0001ms, 2807ms total)
T34E4 003:980 JLINK_IsHalted() -- CPU is running >0x1A0 TIF>  returns FALSE (0001ms, 2807ms total)
T34E4 003:983 JLINK_IsHalted() -- CPU is running >0x1A0 TIF>  returns FALSE (0001ms, 2807ms total)
T34E4 003:986 JLINK_IsHalted() -- CPU is running >0x1A0 TIF>  returns FALSE (0001ms, 2807ms total)
T34E4 003:989 JLINK_IsHalted() -- CPU is running >0x1A0 TIF>  returns FALSE (0001ms, 2807ms total)
T34E4 003:992 JLINK_IsHalted() -- CPU is running >0x1A0 TIF>  returns FALSE (0001ms, 2807ms total)
T34E4 003:995 JLINK_IsHalted() -- CPU is running >0x1A0 TIF>  returns FALSE (0001ms, 2807ms total)
T34E4 003:998 JLINK_IsHalted() -- CPU is running >0x1A0 TIF>  returns FALSE (0001ms, 2807ms total)
T34E4 004:001 JLINK_IsHalted() -- CPU is running >0x1A0 TIF>  returns FALSE (0001ms, 2807ms total)
T34E4 004:004 JLINK_IsHalted() -- CPU is running >0x1A0 TIF>  returns FALSE (0001ms, 2807ms total)
T34E4 004:007 JLINK_IsHalted() -- CPU is running >0x1A0 TIF>  returns FALSE (0001ms, 2807ms total)
T34E4 004:010 JLINK_IsHalted() -- CPU is running >0x1A0 TIF>  returns FALSE (0001ms, 2807ms total)
T34E4 004:013 JLINK_IsHalted() -- CPU is running >0x1A0 TIF>  returns FALSE (0001ms, 2807ms total)
T34E4 004:016 JLINK_IsHalted() -- CPU is running >0x1A0 TIF>  returns FALSE (0001ms, 2807ms total)
T34E4 004:019 JLINK_IsHalted() -- CPU is running >0x1A0 TIF>  returns FALSE (0001ms, 2807ms total)
T34E4 004:022 JLINK_IsHalted() -- CPU is running >0x1A0 TIF>  returns FALSE (0001ms, 2807ms total)
T34E4 004:025 JLINK_IsHalted() -- CPU is running >0x1A0 TIF>  returns FALSE (0001ms, 2807ms total)
T34E4 004:028 JLINK_IsHalted() -- CPU is running >0x1A0 TIF>  returns FALSE (0001ms, 2807ms total)
T34E4 004:031 JLINK_IsHalted() -- CPU is running >0x1A0 TIF>  returns FALSE (0001ms, 2807ms total)
T34E4 004:034 JLINK_IsHalted() -- CPU is running >0x1A0 TIF>  returns FALSE (0001ms, 2807ms total)
T34E4 004:037 JLINK_IsHalted() -- CPU is running >0x1A0 TIF>  returns FALSE (0001ms, 2807ms total)
T34E4 004:040 JLINK_IsHalted() -- CPU is running >0x1A0 TIF>  returns FALSE (0001ms, 2807ms total)
T34E4 004:043 JLINK_IsHalted() -- CPU is running >0x1A0 TIF> >0x11E4 TIF> >0x1A0 TIF>  returns TRUE (0008ms, 2814ms total)
T34E4 004:051 JLINK_ReadReg(R15 (PC))  returns 0x20000000 (0000ms, 2806ms total)
T34E4 004:051 JLINK_ClrBPEx(BPHandle = 0x00000005)  returns 0x00 (0000ms, 2806ms total)
T34E4 004:051 JLINK_ReadReg(R0)  returns 0x00000000 (0000ms, 2806ms total)
T34E4 004:053 JLINK_WriteReg(R0, 0x00000001)  returns 0x00 (0000ms, 2806ms total)
T34E4 004:053 JLINK_WriteReg(R1, 0x00004000)  returns 0x00 (0000ms, 2806ms total)
T34E4 004:053 JLINK_WriteReg(R2, 0x000000FF)  returns 0x00 (0000ms, 2806ms total)
T34E4 004:053 JLINK_WriteReg(R3, 0x00000000)  returns 0x00 (0000ms, 2806ms total)
T34E4 004:053 JLINK_WriteReg(R4, 0x00000000)  returns 0x00 (0000ms, 2806ms total)
T34E4 004:053 JLINK_WriteReg(R5, 0x00000000)  returns 0x00 (0000ms, 2806ms total)
T34E4 004:053 JLINK_WriteReg(R6, 0x00000000)  returns 0x00 (0000ms, 2806ms total)
T34E4 004:053 JLINK_WriteReg(R7, 0x00000000)  returns 0x00 (0000ms, 2806ms total)
T34E4 004:053 JLINK_WriteReg(R8, 0x00000000)  returns 0x00 (0000ms, 2806ms total)
T34E4 004:053 JLINK_WriteReg(R9, 0x2000017C)  returns 0x00 (0000ms, 2806ms total)
T34E4 004:054 JLINK_WriteReg(R10, 0x00000000)  returns 0x00 (0000ms, 2806ms total)
T34E4 004:054 JLINK_WriteReg(R11, 0x00000000)  returns 0x00 (0000ms, 2806ms total)
T34E4 004:054 JLINK_WriteReg(R12, 0x00000000)  returns 0x00 (0000ms, 2806ms total)
T34E4 004:054 JLINK_WriteReg(R13 (SP), 0x20001000)  returns 0x00 (0000ms, 2806ms total)
T34E4 004:054 JLINK_WriteReg(R14, 0x20000001)  returns 0x00 (0000ms, 2806ms total)
T34E4 004:054 JLINK_WriteReg(R15 (PC), 0x20000082)  returns 0x00 (0000ms, 2806ms total)
T34E4 004:054 JLINK_WriteReg(XPSR, 0x01000000)  returns 0x00 (0000ms, 2806ms total)
T34E4 004:054 JLINK_WriteReg(MSP, 0x20001000)  returns 0x00 (0000ms, 2806ms total)
T34E4 004:054 JLINK_WriteReg(PSP, 0x20001000)  returns 0x00 (0000ms, 2806ms total)
T34E4 004:054 JLINK_WriteReg(CFBP, 0x00000000)  returns 0x00 (0000ms, 2806ms total)
T34E4 004:054 JLINK_SetBPEx(Addr = 0x20000000, Type = 0xFFFFFFF2)  returns 0x00000006 (0000ms, 2806ms total)
T34E4 004:054 JLINK_Go() >0x1A0 TIF> >0x20E TIF> >0x13A TIF> >0x13A TIF> >0x13A TIF> >0x13A TIF> >0x13A TIF> >0x13A TIF> >0x1A2 TIF> (0010ms, 2816ms total)
T34E4 004:064 JLINK_IsHalted() -- CPU is running >0x1A0 TIF> >0x11E4 TIF> >0x1A0 TIF>  returns TRUE (0007ms, 2823ms total)
T34E4 004:072 JLINK_ReadReg(R15 (PC))  returns 0x20000000 (0000ms, 2816ms total)
T34E4 004:072 JLINK_ClrBPEx(BPHandle = 0x00000006)  returns 0x00 (0000ms, 2816ms total)
T34E4 004:072 JLINK_ReadReg(R0)  returns 0x00000000 (0000ms, 2816ms total)
T34E4 004:155 JLINK_WriteMem(0x20000000, 0x0180 Bytes, ...) - Data: 00 BE 0A E0 0D 78 2D 06 68 40 08 24 40 00 00 D3 ... >0x154D TIF>  returns 0x180 (0007ms, 2823ms total)
T34E4 004:162 JLINK_WriteReg(R0, 0x08000000)  returns 0x00 (0000ms, 2823ms total)
T34E4 004:162 JLINK_WriteReg(R1, 0x0A037A00)  returns 0x00 (0001ms, 2824ms total)
T34E4 004:163 JLINK_WriteReg(R2, 0x00000002)  returns 0x00 (0000ms, 2824ms total)
T34E4 004:163 JLINK_WriteReg(R3, 0x00000000)  returns 0x00 (0000ms, 2824ms total)
T34E4 004:163 JLINK_WriteReg(R4, 0x00000000)  returns 0x00 (0000ms, 2824ms total)
T34E4 004:163 JLINK_WriteReg(R5, 0x00000000)  returns 0x00 (0000ms, 2824ms total)
T34E4 004:163 JLINK_WriteReg(R6, 0x00000000)  returns 0x00 (0000ms, 2824ms total)
T34E4 004:163 JLINK_WriteReg(R7, 0x00000000)  returns 0x00 (0000ms, 2824ms total)
T34E4 004:163 JLINK_WriteReg(R8, 0x00000000)  returns 0x00 (0000ms, 2824ms total)
T34E4 004:163 JLINK_WriteReg(R9, 0x2000017C)  returns 0x00 (0000ms, 2824ms total)
T34E4 004:163 JLINK_WriteReg(R10, 0x00000000)  returns 0x00 (0000ms, 2824ms total)
T34E4 004:163 JLINK_WriteReg(R11, 0x00000000)  returns 0x00 (0000ms, 2824ms total)
T34E4 004:163 JLINK_WriteReg(R12, 0x00000000)  returns 0x00 (0000ms, 2824ms total)
T34E4 004:163 JLINK_WriteReg(R13 (SP), 0x20001000)  returns 0x00 (0000ms, 2824ms total)
T34E4 004:163 JLINK_WriteReg(R14, 0x20000001)  returns 0x00 (0001ms, 2825ms total)
T34E4 004:164 JLINK_WriteReg(R15 (PC), 0x20000054)  returns 0x00 (0000ms, 2825ms total)
T34E4 004:164 JLINK_WriteReg(XPSR, 0x01000000)  returns 0x00 (0000ms, 2825ms total)
T34E4 004:164 JLINK_WriteReg(MSP, 0x20001000)  returns 0x00 (0000ms, 2825ms total)
T34E4 004:164 JLINK_WriteReg(PSP, 0x20001000)  returns 0x00 (0000ms, 2825ms total)
T34E4 004:164 JLINK_WriteReg(CFBP, 0x00000000)  returns 0x00 (0000ms, 2825ms total)
T34E4 004:164 JLINK_SetBPEx(Addr = 0x20000000, Type = 0xFFFFFFF2) >0x1A0 TIF>  returns 0x00000007 (0001ms, 2826ms total)
T34E4 004:165 JLINK_Go() >0x1A2 TIF> >0x1A0 TIF> >0x20E TIF> >0x13A TIF> >0x13A TIF> >0x13A TIF> >0x13A TIF> >0x1A2 TIF> (0009ms, 2835ms total)
T34E4 004:174 JLINK_IsHalted() -- CPU is running >0x1A0 TIF> >0x11E4 TIF> >0x1A0 TIF>  returns TRUE (0008ms, 2843ms total)
T34E4 004:182 JLINK_ReadReg(R15 (PC))  returns 0x20000000 (0000ms, 2835ms total)
T34E4 004:182 JLINK_ClrBPEx(BPHandle = 0x00000007)  returns 0x00 (0000ms, 2835ms total)
T34E4 004:182 JLINK_ReadReg(R0)  returns 0x00000000 (0000ms, 2835ms total)
T34E4 004:183 JLINK_WriteMem(0x20000180, 0x0400 Bytes, ...) - Data: 38 CD 00 20 9D 01 00 08 25 2D 00 08 1D 2B 00 08 ... >0x366D TIF>  returns 0x400 (0017ms, 2852ms total)
T34E4 004:200 JLINK_WriteReg(R0, 0x08000000)  returns 0x00 (0000ms, 2852ms total)
T34E4 004:200 JLINK_WriteReg(R1, 0x00000400)  returns 0x00 (0000ms, 2852ms total)
T34E4 004:200 JLINK_WriteReg(R2, 0x20000180)  returns 0x00 (0000ms, 2852ms total)
T34E4 004:200 JLINK_WriteReg(R3, 0x00000000)  returns 0x00 (0000ms, 2852ms total)
T34E4 004:200 JLINK_WriteReg(R4, 0x00000000)  returns 0x00 (0000ms, 2852ms total)
T34E4 004:200 JLINK_WriteReg(R5, 0x00000000)  returns 0x00 (0000ms, 2852ms total)
T34E4 004:200 JLINK_WriteReg(R6, 0x00000000)  returns 0x00 (0000ms, 2852ms total)
T34E4 004:200 JLINK_WriteReg(R7, 0x00000000)  returns 0x00 (0000ms, 2852ms total)
T34E4 004:200 JLINK_WriteReg(R8, 0x00000000)  returns 0x00 (0000ms, 2852ms total)
T34E4 004:200 JLINK_WriteReg(R9, 0x2000017C)  returns 0x00 (0000ms, 2852ms total)
T34E4 004:200 JLINK_WriteReg(R10, 0x00000000)  returns 0x00 (0000ms, 2852ms total)
T34E4 004:200 JLINK_WriteReg(R11, 0x00000000)  returns 0x00 (0000ms, 2852ms total)
T34E4 004:200 JLINK_WriteReg(R12, 0x00000000)  returns 0x00 (0000ms, 2852ms total)
T34E4 004:200 JLINK_WriteReg(R13 (SP), 0x20001000)  returns 0x00 (0000ms, 2852ms total)
T34E4 004:200 JLINK_WriteReg(R14, 0x20000001)  returns 0x00 (0000ms, 2852ms total)
T34E4 004:200 JLINK_WriteReg(R15 (PC), 0x20000108)  returns 0x00 (0000ms, 2852ms total)
T34E4 004:200 JLINK_WriteReg(XPSR, 0x01000000)  returns 0x00 (0000ms, 2852ms total)
T34E4 004:200 JLINK_WriteReg(MSP, 0x20001000)  returns 0x00 (0000ms, 2852ms total)
T34E4 004:200 JLINK_WriteReg(PSP, 0x20001000)  returns 0x00 (0000ms, 2852ms total)
T34E4 004:200 JLINK_WriteReg(CFBP, 0x00000000)  returns 0x00 (0000ms, 2852ms total)
T34E4 004:200 JLINK_SetBPEx(Addr = 0x20000000, Type = 0xFFFFFFF2)  returns 0x00000008 (0000ms, 2852ms total)
T34E4 004:200 JLINK_Go() >0x1A0 TIF> >0x20E TIF> >0x13A TIF> >0x13A TIF> >0x13A TIF> >0x13A TIF> >0x1A2 TIF> (0007ms, 2859ms total)
T34E4 004:208 JLINK_IsHalted() -- CPU is running >0x1A0 TIF>  returns FALSE (0002ms, 2861ms total)
T34E4 004:251 JLINK_IsHalted() -- CPU is running >0x1A0 TIF> >0x11E4 TIF> >0x1A0 TIF>  returns TRUE (0007ms, 2866ms total)
T34E4 004:258 JLINK_ReadReg(R15 (PC))  returns 0x20000000 (0000ms, 2859ms total)
T34E4 004:258 JLINK_ClrBPEx(BPHandle = 0x00000008)  returns 0x00 (0000ms, 2859ms total)
T34E4 004:258 JLINK_ReadReg(R0)  returns 0x00000000 (0000ms, 2859ms total)
T34E4 004:261 JLINK_WriteMem(0x20000180, 0x0400 Bytes, ...) - Data: C3 F3 13 03 43 F4 80 13 01 FB 02 44 00 FB 03 4E ... >0x366D TIF>  returns 0x400 (0017ms, 2876ms total)
T34E4 004:278 JLINK_WriteReg(R0, 0x08000400)  returns 0x00 (0000ms, 2876ms total)
T34E4 004:278 JLINK_WriteReg(R1, 0x00000400)  returns 0x00 (0000ms, 2876ms total)
T34E4 004:278 JLINK_WriteReg(R2, 0x20000180)  returns 0x00 (0000ms, 2876ms total)
T34E4 004:278 JLINK_WriteReg(R3, 0x00000000)  returns 0x00 (0000ms, 2876ms total)
T34E4 004:278 JLINK_WriteReg(R4, 0x00000000)  returns 0x00 (0000ms, 2876ms total)
T34E4 004:278 JLINK_WriteReg(R5, 0x00000000)  returns 0x00 (0000ms, 2876ms total)
T34E4 004:278 JLINK_WriteReg(R6, 0x00000000)  returns 0x00 (0000ms, 2876ms total)
T34E4 004:278 JLINK_WriteReg(R7, 0x00000000)  returns 0x00 (0001ms, 2877ms total)
T34E4 004:279 JLINK_WriteReg(R8, 0x00000000)  returns 0x00 (0000ms, 2877ms total)
T34E4 004:279 JLINK_WriteReg(R9, 0x2000017C)  returns 0x00 (0000ms, 2877ms total)
T34E4 004:279 JLINK_WriteReg(R10, 0x00000000)  returns 0x00 (0000ms, 2877ms total)
T34E4 004:279 JLINK_WriteReg(R11, 0x00000000)  returns 0x00 (0000ms, 2877ms total)
T34E4 004:279 JLINK_WriteReg(R12, 0x00000000)  returns 0x00 (0000ms, 2877ms total)
T34E4 004:279 JLINK_WriteReg(R13 (SP), 0x20001000)  returns 0x00 (0000ms, 2877ms total)
T34E4 004:279 JLINK_WriteReg(R14, 0x20000001)  returns 0x00 (0000ms, 2877ms total)
T34E4 004:279 JLINK_WriteReg(R15 (PC), 0x20000108)  returns 0x00 (0000ms, 2877ms total)
T34E4 004:279 JLINK_WriteReg(XPSR, 0x01000000)  returns 0x00 (0000ms, 2877ms total)
T34E4 004:279 JLINK_WriteReg(MSP, 0x20001000)  returns 0x00 (0000ms, 2877ms total)
T34E4 004:279 JLINK_WriteReg(PSP, 0x20001000)  returns 0x00 (0000ms, 2877ms total)
T34E4 004:279 JLINK_WriteReg(CFBP, 0x00000000)  returns 0x00 (0000ms, 2877ms total)
T34E4 004:279 JLINK_SetBPEx(Addr = 0x20000000, Type = 0xFFFFFFF2)  returns 0x00000009 (0000ms, 2877ms total)
T34E4 004:279 JLINK_Go() >0x1A0 TIF> >0x20E TIF> >0x13A TIF> >0x13A TIF> >0x13A TIF> >0x13A TIF> >0x13A TIF> >0x1A2 TIF> (0007ms, 2884ms total)
T34E4 004:286 JLINK_IsHalted() -- CPU is running >0x1A0 TIF>  returns FALSE (0002ms, 2886ms total)
T34E4 004:314 JLINK_IsHalted() -- CPU is running >0x1A0 TIF> >0x11E4 TIF> >0x1A0 TIF>  returns TRUE (0007ms, 2891ms total)
T34E4 004:321 JLINK_ReadReg(R15 (PC))  returns 0x20000000 (0000ms, 2884ms total)
T34E4 004:321 JLINK_ClrBPEx(BPHandle = 0x00000009)  returns 0x00 (0000ms, 2884ms total)
T34E4 004:321 JLINK_ReadReg(R0)  returns 0x00000000 (0000ms, 2884ms total)
T34E4 004:323 JLINK_WriteMem(0x20000180, 0x0400 Bytes, ...) - Data: 0B 01 53 46 5A 46 08 43 13 D0 11 46 53 EA 01 00 ... >0x366D TIF>  returns 0x400 (0017ms, 2901ms total)
T34E4 004:340 JLINK_WriteReg(R0, 0x08000800)  returns 0x00 (0000ms, 2901ms total)
T34E4 004:340 JLINK_WriteReg(R1, 0x00000400)  returns 0x00 (0000ms, 2901ms total)
T34E4 004:340 JLINK_WriteReg(R2, 0x20000180)  returns 0x00 (0000ms, 2901ms total)
T34E4 004:340 JLINK_WriteReg(R3, 0x00000000)  returns 0x00 (0000ms, 2901ms total)
T34E4 004:340 JLINK_WriteReg(R4, 0x00000000)  returns 0x00 (0000ms, 2901ms total)
T34E4 004:341 JLINK_WriteReg(R5, 0x00000000)  returns 0x00 (0000ms, 2902ms total)
T34E4 004:341 JLINK_WriteReg(R6, 0x00000000)  returns 0x00 (0000ms, 2902ms total)
T34E4 004:341 JLINK_WriteReg(R7, 0x00000000)  returns 0x00 (0000ms, 2902ms total)
T34E4 004:341 JLINK_WriteReg(R8, 0x00000000)  returns 0x00 (0000ms, 2902ms total)
T34E4 004:341 JLINK_WriteReg(R9, 0x2000017C)  returns 0x00 (0000ms, 2902ms total)
T34E4 004:341 JLINK_WriteReg(R10, 0x00000000)  returns 0x00 (0000ms, 2902ms total)
T34E4 004:341 JLINK_WriteReg(R11, 0x00000000)  returns 0x00 (0000ms, 2902ms total)
T34E4 004:341 JLINK_WriteReg(R12, 0x00000000)  returns 0x00 (0000ms, 2902ms total)
T34E4 004:341 JLINK_WriteReg(R13 (SP), 0x20001000)  returns 0x00 (0000ms, 2902ms total)
T34E4 004:341 JLINK_WriteReg(R14, 0x20000001)  returns 0x00 (0000ms, 2902ms total)
T34E4 004:341 JLINK_WriteReg(R15 (PC), 0x20000108)  returns 0x00 (0000ms, 2902ms total)
T34E4 004:341 JLINK_WriteReg(XPSR, 0x01000000)  returns 0x00 (0000ms, 2902ms total)
T34E4 004:341 JLINK_WriteReg(MSP, 0x20001000)  returns 0x00 (0000ms, 2902ms total)
T34E4 004:341 JLINK_WriteReg(PSP, 0x20001000)  returns 0x00 (0000ms, 2902ms total)
T34E4 004:342 JLINK_WriteReg(CFBP, 0x00000000)  returns 0x00 (0000ms, 2902ms total)
T34E4 004:342 JLINK_SetBPEx(Addr = 0x20000000, Type = 0xFFFFFFF2)  returns 0x0000000A (0000ms, 2902ms total)
T34E4 004:342 JLINK_Go() >0x1A0 TIF> >0x20E TIF> >0x13A TIF> >0x13A TIF> >0x13A TIF> >0x13A TIF> >0x13A TIF> >0x1A2 TIF> (0008ms, 2910ms total)
T34E4 004:350 JLINK_IsHalted() -- CPU is running >0x1A0 TIF>  returns FALSE (0001ms, 2911ms total)
T34E4 004:356 JLINK_IsHalted() -- CPU is running >0x1A0 TIF> >0x11E4 TIF> >0x1A0 TIF>  returns TRUE (0009ms, 2919ms total)
T34E4 004:365 JLINK_ReadReg(R15 (PC))  returns 0x20000000 (0000ms, 2910ms total)
T34E4 004:365 JLINK_ClrBPEx(BPHandle = 0x0000000A)  returns 0x00 (0000ms, 2910ms total)
T34E4 004:365 JLINK_ReadReg(R0)  returns 0x00000000 (0000ms, 2910ms total)
T34E4 004:367 JLINK_WriteMem(0x20000180, 0x0400 Bytes, ...) - Data: 9F ED A1 0B 53 EC 10 2B CD E9 08 01 9D ED 08 0B ... >0x366D TIF>  returns 0x400 (0016ms, 2926ms total)
T34E4 004:383 JLINK_WriteReg(R0, 0x08000C00)  returns 0x00 (0000ms, 2926ms total)
T34E4 004:383 JLINK_WriteReg(R1, 0x00000400)  returns 0x00 (0000ms, 2926ms total)
T34E4 004:383 JLINK_WriteReg(R2, 0x20000180)  returns 0x00 (0000ms, 2926ms total)
T34E4 004:383 JLINK_WriteReg(R3, 0x00000000)  returns 0x00 (0000ms, 2926ms total)
T34E4 004:383 JLINK_WriteReg(R4, 0x00000000)  returns 0x00 (0000ms, 2926ms total)
T34E4 004:383 JLINK_WriteReg(R5, 0x00000000)  returns 0x00 (0000ms, 2926ms total)
T34E4 004:383 JLINK_WriteReg(R6, 0x00000000)  returns 0x00 (0000ms, 2926ms total)
T34E4 004:383 JLINK_WriteReg(R7, 0x00000000)  returns 0x00 (0000ms, 2926ms total)
T34E4 004:384 JLINK_WriteReg(R8, 0x00000000)  returns 0x00 (0000ms, 2927ms total)
T34E4 004:384 JLINK_WriteReg(R9, 0x2000017C)  returns 0x00 (0000ms, 2927ms total)
T34E4 004:384 JLINK_WriteReg(R10, 0x00000000)  returns 0x00 (0000ms, 2927ms total)
T34E4 004:384 JLINK_WriteReg(R11, 0x00000000)  returns 0x00 (0000ms, 2927ms total)
T34E4 004:384 JLINK_WriteReg(R12, 0x00000000)  returns 0x00 (0000ms, 2927ms total)
T34E4 004:384 JLINK_WriteReg(R13 (SP), 0x20001000)  returns 0x00 (0000ms, 2927ms total)
T34E4 004:384 JLINK_WriteReg(R14, 0x20000001)  returns 0x00 (0000ms, 2927ms total)
T34E4 004:384 JLINK_WriteReg(R15 (PC), 0x20000108)  returns 0x00 (0000ms, 2927ms total)
T34E4 004:384 JLINK_WriteReg(XPSR, 0x01000000)  returns 0x00 (0000ms, 2927ms total)
T34E4 004:384 JLINK_WriteReg(MSP, 0x20001000)  returns 0x00 (0000ms, 2927ms total)
T34E4 004:384 JLINK_WriteReg(PSP, 0x20001000)  returns 0x00 (0000ms, 2927ms total)
T34E4 004:384 JLINK_WriteReg(CFBP, 0x00000000)  returns 0x00 (0000ms, 2927ms total)
T34E4 004:384 JLINK_SetBPEx(Addr = 0x20000000, Type = 0xFFFFFFF2)  returns 0x0000000B (0000ms, 2927ms total)
T34E4 004:384 JLINK_Go() >0x1A0 TIF> >0x20E TIF> >0x13A TIF> >0x13A TIF> >0x13A TIF> >0x13A TIF> >0x13A TIF> >0x1A2 TIF> (0009ms, 2936ms total)
T34E4 004:393 JLINK_IsHalted() -- CPU is running >0x1A0 TIF>  returns FALSE (0001ms, 2937ms total)
T34E4 004:422 JLINK_IsHalted() -- CPU is running >0x1A0 TIF> >0x11E4 TIF> >0x1A0 TIF>  returns TRUE (0009ms, 2945ms total)
T34E4 004:431 JLINK_ReadReg(R15 (PC))  returns 0x20000000 (0000ms, 2936ms total)
T34E4 004:431 JLINK_ClrBPEx(BPHandle = 0x0000000B)  returns 0x00 (0000ms, 2936ms total)
T34E4 004:431 JLINK_ReadReg(R0)  returns 0x00000000 (0000ms, 2936ms total)
T34E4 004:433 JLINK_WriteMem(0x20000180, 0x0400 Bytes, ...) - Data: 00 01 0F A8 40 7B 03 46 59 22 41 21 0C 90 04 20 ... >0x366D TIF>  returns 0x400 (0016ms, 2952ms total)
T34E4 004:449 JLINK_WriteReg(R0, 0x08001000)  returns 0x00 (0000ms, 2952ms total)
T34E4 004:449 JLINK_WriteReg(R1, 0x00000400)  returns 0x00 (0000ms, 2952ms total)
T34E4 004:449 JLINK_WriteReg(R2, 0x20000180)  returns 0x00 (0000ms, 2952ms total)
T34E4 004:450 JLINK_WriteReg(R3, 0x00000000)  returns 0x00 (0000ms, 2953ms total)
T34E4 004:450 JLINK_WriteReg(R4, 0x00000000)  returns 0x00 (0000ms, 2953ms total)
T34E4 004:450 JLINK_WriteReg(R5, 0x00000000)  returns 0x00 (0000ms, 2953ms total)
T34E4 004:450 JLINK_WriteReg(R6, 0x00000000)  returns 0x00 (0000ms, 2953ms total)
T34E4 004:450 JLINK_WriteReg(R7, 0x00000000)  returns 0x00 (0000ms, 2953ms total)
T34E4 004:450 JLINK_WriteReg(R8, 0x00000000)  returns 0x00 (0000ms, 2953ms total)
T34E4 004:450 JLINK_WriteReg(R9, 0x2000017C)  returns 0x00 (0000ms, 2953ms total)
T34E4 004:450 JLINK_WriteReg(R10, 0x00000000)  returns 0x00 (0000ms, 2953ms total)
T34E4 004:450 JLINK_WriteReg(R11, 0x00000000)  returns 0x00 (0000ms, 2953ms total)
T34E4 004:450 JLINK_WriteReg(R12, 0x00000000)  returns 0x00 (0000ms, 2953ms total)
T34E4 004:450 JLINK_WriteReg(R13 (SP), 0x20001000)  returns 0x00 (0000ms, 2953ms total)
